$date
   Thu Nov 18 20:48:20 2021
$end
$version
  2020.2
$end
$timescale
  1ps
$end
$scope module top $end
$var reg 1 ! clk $end
$var reg 6 " pready_d [5:0] $end
$scope module apbIf $end
$var reg 1 ! PCLK $end
$var reg 1 # PRESETn $end
$var reg 32 $ PADDR [31:0] $end
$var reg 2 % PSELx [1:0] $end
$var reg 1 & PENABLE $end
$var reg 1 ' PWRITE $end
$var reg 32 ( PWDATA [31:0] $end
$var reg 1 ) PREADY $end
$var reg 32 * PRDATA [31:0] $end
$var reg 1 + PSLVERR $end
$scope module master $end
$var reg 1 # PRESETn $end
$var reg 32 $ PADDR [31:0] $end
$var reg 2 % PSELx [1:0] $end
$var reg 1 & PENABLE $end
$var reg 1 ' PWRITE $end
$var reg 32 ( PWDATA [31:0] $end
$var reg 1 ) PREADY $end
$var reg 32 * PRDATA [31:0] $end
$var reg 1 + PSLVERR $end
$upscope $end
$scope module slave $end
$var reg 1 # PRESETn $end
$var reg 32 $ PADDR [31:0] $end
$var reg 2 % PSELx [1:0] $end
$var reg 1 & PENABLE $end
$var reg 1 ' PWRITE $end
$var reg 32 ( PWDATA [31:0] $end
$var reg 1 ) PREADY $end
$var reg 32 * PRDATA [31:0] $end
$var reg 1 + PSLVERR $end
$upscope $end
$scope module cb_apb $end
$var reg 1 ! cb_apb_clk $end
$upscope $end
$scope task reset $end
$upscope $end
$scope task read $end
$var integer 32 , slave_id $end
$var reg 32 - addr [31:0] $end
$var reg 32 . value [31:0] $end
$var reg 1 / err $end
$upscope $end
$upscope $end
$scope module DUT $end
$var reg 1 0 PCLK $end
$var reg 1 1 PRESETn $end
$var reg 32 2 PADDR [31:0] $end
$var reg 2 3 PSELx [1:0] $end
$var reg 1 4 PENABLE $end
$var reg 1 5 PWRITE $end
$var reg 32 6 PWDATA [31:0] $end
$var reg 1 7 PREADY $end
$var reg 32 8 PRDATA [31:0] $end
$var reg 1 9 PSLVERR $end
$var reg 1 : selected $end
$var reg 1 ; done $end
$var reg 3 < state_next [2:0] $end
$var reg 3 = state [2:0] $end
$var reg 32 > paddr_prev [31:0] $end
$var reg 1 ? err_paddr_changed $end
$var reg 32 @ pwdata_fetch_value [31:0] $end
$var reg 1 A pwdata_fetch_done $end
$var reg 32 B pwdata_prev [31:0] $end
$var reg 1 C err_pwdata_changed $end
$var reg 1 D prdata_prepared $end
$var reg 1 E prdata_valid $end
$upscope $end
$upscope $end
$enddefinitions $end
#0
$dumpvars
0!
bx "
0#
b10100101101001011010010110100101 $
b0 %
0&
0'
b10100101101001011010010110100101 (
x)
bx *
x+
bx ,
bx -
bx .
x/
00
01
b10100101101001011010010110100101 2
b0 3
04
05
b10100101101001011010010110100101 6
x7
bx 8
x9
0:
x;
b1 <
bx =
bx >
0?
bx @
xA
bx B
0C
xD
xE
$end
#5000
1!
bx "
0)
b0 *
0+
10
07
b0 8
09
0;
b1 <
b1 =
b0 >
0?
b0 @
0A
b0 B
0C
0D
0E
#10000
0!
00
#15000
1!
bx "
10
07
b0 8
09
b1 =
b0 >
b0 @
0A
b0 B
0D
0E
#20000
0!
1#
00
11
b1 <
#25000
1!
bx "
10
07
b0 8
09
b1 =
b0 >
b0 @
0A
b0 B
0D
0E
#30000
0!
b1011001100110100111100000100000 $
b10 %
b1 ,
b1011001100110100111100000100000 -
00
b1011001100110100111100000100000 2
b10 3
1:
b10 <
0?
0C
#35000
1!
bx "
10
09
b11 <
b10 =
b1011001100110100111100000100000 >
0?
b0 B
#40000
0!
1&
00
14
0?
0C
#45000
1!
bx "
10
09
b11 <
b11 =
b1011001100110100111100000100000 >
b0 B
1D
#50000
0!
00
#55000
1!
bx "
1)
b11001010111111100000000100100011 *
10
17
b11001010111111100000000100100011 8
09
1;
b1 <
b11 =
b1011001100110100111100000100000 >
b0 B
1D
1E
#60000
0!
b11001010111111100000000100100011 .
0/
00
#65000
1!
bx "
10
17
b11001010111111100000000100100011 8
09
b10 <
b1 =
b1011001100110100111100000100000 >
b0 B
1D
1E
#70000
0!
b0 %
0&
00
b0 3
04
0:
b1 <
0?
0C
#75000
1!
bx "
0)
b0 *
10
07
b0 8
09
0;
b1 <
b1 =
b0 >
0?
b0 @
0A
b0 B
0D
0E
#80000
0!
b1011001100110100111100000100000 $
b10 %
b1 ,
b1011001100110100111100000100000 -
00
b10 3
1:
b10 <
0?
0C
#85000
1!
bx "
10
09
b11 <
b10 =
b1011001100110100111100000100000 >
0?
b0 B
#90000
0!
1&
00
14
0?
0C
#95000
1!
bx "
10
09
b11 <
b11 =
b1011001100110100111100000100000 >
b0 B
1D
#100000
0!
00
#105000
1!
bx "
1)
b11001010111111100000000100100011 *
10
17
b11001010111111100000000100100011 8
09
1;
b1 <
b11 =
b1011001100110100111100000100000 >
b0 B
1D
1E
#110000
0!
b11001010111111100000000100100011 .
0/
00
#115000
1!
bx "
10
17
b11001010111111100000000100100011 8
09
b10 <
b1 =
b1011001100110100111100000100000 >
b0 B
1D
1E
#120000
0!
b0 %
0&
00
b0 3
04
0:
b1 <
0?
0C
#125000
1!
bx "
0)
b0 *
10
07
b0 8
09
0;
b1 <
b1 =
b0 >
0?
b0 @
0A
b0 B
0D
0E
#130000
0!
b1011001100110100111100000100000 $
b10 %
b1 ,
b1011001100110100111100000100000 -
00
b10 3
1:
b10 <
0?
0C
#135000
1!
bx "
10
09
b11 <
b10 =
b1011001100110100111100000100000 >
0?
b0 B
#140000
0!
1&
00
14
0?
0C
#145000
1!
bx "
10
09
b11 <
b11 =
b1011001100110100111100000100000 >
b0 B
1D
#150000
0!
00
#155000
1!
bx "
1)
b11001010111111100000000100100011 *
10
17
b11001010111111100000000100100011 8
09
1;
b1 <
b11 =
b1011001100110100111100000100000 >
b0 B
1D
1E
#160000
0!
b11001010111111100000000100100011 .
0/
00
#165000
1!
bx "
10
17
b11001010111111100000000100100011 8
09
b10 <
b1 =
b1011001100110100111100000100000 >
b0 B
1D
1E
#170000
0!
b0 %
0&
00
b0 3
04
0:
b1 <
0?
0C
#175000
1!
bx "
0)
b0 *
10
07
b0 8
09
0;
b1 <
b1 =
b0 >
0?
b0 @
0A
b0 B
0D
0E
#180000
0!
b1011001100110100111100000100000 $
b10 %
b1 ,
b1011001100110100111100000100000 -
00
b10 3
1:
b10 <
0?
0C
#185000
1!
bx "
10
09
b11 <
b10 =
b1011001100110100111100000100000 >
0?
b0 B
#190000
0!
1&
00
14
0?
0C
#195000
1!
bx "
10
09
b11 <
b11 =
b1011001100110100111100000100000 >
b0 B
1D
#200000
0!
00
#205000
1!
bx "
1)
b11001010111111100000000100100011 *
10
17
b11001010111111100000000100100011 8
09
1;
b1 <
b11 =
b1011001100110100111100000100000 >
b0 B
1D
1E
#210000
0!
b11001010111111100000000100100011 .
0/
00
#215000
1!
bx "
10
17
b11001010111111100000000100100011 8
09
b10 <
b1 =
b1011001100110100111100000100000 >
b0 B
1D
1E
#220000
0!
b0 %
0&
00
b0 3
04
0:
b1 <
0?
0C
#225000
1!
bx "
0)
b0 *
10
07
b0 8
09
0;
b1 <
b1 =
b0 >
0?
b0 @
0A
b0 B
0D
0E
#230000
0!
b1011001100110100111100000100000 $
b10 %
b1 ,
b1011001100110100111100000100000 -
00
b10 3
1:
b10 <
0?
0C
#235000
1!
bx "
10
09
b11 <
b10 =
b1011001100110100111100000100000 >
0?
b0 B
#240000
0!
1&
00
14
0?
0C
#245000
1!
bx "
10
09
b11 <
b11 =
b1011001100110100111100000100000 >
b0 B
1D
#250000
0!
00
#255000
1!
bx "
1)
b11001010111111100000000100100011 *
10
17
b11001010111111100000000100100011 8
09
1;
b1 <
b11 =
b1011001100110100111100000100000 >
b0 B
1D
1E
#260000
0!
b11001010111111100000000100100011 .
0/
00
#265000
1!
bx "
10
17
b11001010111111100000000100100011 8
09
b10 <
b1 =
b1011001100110100111100000100000 >
b0 B
1D
1E
#270000
0!
b0 %
0&
00
b0 3
04
0:
b1 <
0?
0C
#275000
1!
bx "
0)
b0 *
10
07
b0 8
09
0;
b1 <
b1 =
b0 >
0?
b0 @
0A
b0 B
0D
0E
#280000
0!
00
